Time [s],Value,Parity Error,Framing Error
1.705594000000000,0x3B,,
1.706665250000000,0x90,,
1.707613750000000,0x11,,
1.708562250000000,0x00,,
6.712675000000000,0x00,,Error
7.790645500000000,0x3B,,
7.791716500000000,0x90,,
7.792665000000000,0x11,,
7.793613500000000,0x00,,
7.802797500000000,0x88,,
7.803728250000000,0x10,,
7.804659000000000,0x00,,
7.805589750000000,0x00,,
7.806520750000000,0x10,,
7.826265000000000,0xEF,,
7.827972000000000,0x6F,,
7.830295500000000,0xEF,,
7.832002750000000,0x21,,
7.834326000000000,0xEF,,
7.836033000000000,0x42,,
7.838356500000000,0xEF,,
7.840063500000000,0x81,,
7.842387000000000,0xEF,,
7.844094000000000,0x8B,,
7.846417500000000,0xEF,,
7.848124500000000,0xF8,,
7.850448500000000,0xEF,,
7.852155500000000,0xC5,,
7.854479000000000,0xEF,,
7.856186250000000,0xFD,,
7.858510250000000,0xEF,,
7.860217250000000,0xAF,,
7.862540750000000,0xEF,,
7.864247750000000,0xC5,,
7.866571500000000,0xEF,,
7.868278500000000,0x9F,,
7.870602250000000,0xEF,,
7.872309250000000,0x5F,,
7.874632750000000,0xEF,,
7.876339750000000,0xCD,,
7.878663500000000,0xEF,,
7.880370500000000,0x19,,
7.882694000000000,0xEF,,
7.884401000000000,0x89,,
7.886724250000000,0xEF,,
7.888431250000000,0xCD,,
7.890753500000000,0x61,,
7.891680250000000,0x10,,
7.893754000000000,0x88,,
7.894684750000000,0xC0,,
7.895615500000000,0x00,,
7.896546500000000,0x00,,
7.897477250000000,0x10,,
7.914276000000000,0xC0,,
7.920723500000000,0xD3,,
7.921651500000000,0x43,,
7.922579500000000,0xA4,,
7.923507750000000,0x47,,
7.924435750000000,0xBF,,
7.925363750000000,0x9A,,
7.926291750000000,0x72,,
7.927220000000000,0xC7,,
7.928148000000000,0x7F,,
7.929076000000000,0x11,,
7.930004250000000,0x44,,
7.930932250000000,0x1C,,
7.931860250000000,0x4E,,
7.932788250000000,0x7E,,
7.933716500000000,0x54,,
7.934644500000000,0x06,,
7.944487000000000,0x90,,
7.945413750000000,0x00,,
7.950502000000000,0x88,,
7.951432750000000,0x10,,
7.952363500000000,0x00,,
7.953294250000000,0x00,,
7.954225000000000,0x10,,
7.973969500000000,0xEF,,
7.975676750000000,0x11,,
7.978000000000000,0xEF,,
7.979707000000000,0xF0,,
7.982031250000000,0xEF,,
7.983738250000000,0xF6,,
7.986062250000000,0xEF,,
7.987769250000000,0x21,,
7.990092750000000,0xEF,,
7.991799750000000,0x4C,,
7.994123000000000,0xEF,,
7.995830250000000,0x24,,
7.998153500000000,0xEF,,
7.999860500000000,0x87,,
8.002184000000000,0xEF,,
8.003890999999999,0x04,,
8.005751500000001,0xEF,,
8.007458500000000,0x15,,
8.009782000000000,0xEF,,
8.011488999999999,0xC3,,
8.013812750000000,0xEF,,
8.015519749999999,0x53,,
8.017843250000000,0xEF,,
8.019550250000000,0xB8,,
8.021874250000000,0xEF,,
8.023581249999999,0x5B,,
8.025904750000000,0xEF,,
8.027611750000000,0x1C,,
8.029935249999999,0xEF,,
8.031642250000001,0x17,,
8.033965750000000,0xEF,,
8.035672750000000,0xF8,,
8.037995250000000,0x61,,
8.038921999999999,0x10,,
8.041011500000000,0x88,,
8.041942250000000,0xC0,,
8.042873000000000,0x00,,
8.043803750000000,0x00,,
8.044734500000001,0x10,,
8.061533250000000,0xC0,,
8.067980750000000,0x48,,
8.068909000000000,0x8C,,
8.069837000000000,0xB1,,
8.070765000000000,0xE4,,
8.071693000000000,0x7C,,
8.072621249999999,0x23,,
8.073549249999999,0x8F,,
8.074477249999999,0xE8,,
8.075405500000000,0xF2,,
8.076333500000000,0xA9,,
8.077261500000001,0x82,,
8.078189500000001,0x08,,
8.079117750000000,0x6D,,
8.080045750000000,0xF3,,
8.080973750000000,0x58,,
8.081901750000000,0x8E,,
8.091744250000000,0x90,,
8.092671250000000,0x00,,
8.096462750000001,0x88,,
8.097393500000001,0x10,,
8.098324249999999,0x00,,
8.099254999999999,0x00,,
8.100185750000000,0x10,,
8.119930249999999,0xEF,,
8.121637249999999,0x3D,,
8.123960750000000,0xEF,,
8.125667999999999,0xBF,,
8.127991750000000,0xEF,,
8.129698749999999,0x2D,,
8.132022250000000,0xEF,,
8.133729250000000,0xF9,,
8.136053250000000,0xEF,,
8.137760249999999,0x2D,,
8.140083750000001,0xEF,,
8.141790750000000,0x6D,,
8.144114249999999,0xEF,,
8.145821249999999,0x1E,,
8.148144750000000,0xEF,,
8.149851750000000,0x28,,
8.152175250000001,0xEF,,
8.153882250000001,0x74,,
8.156205999999999,0xEF,,
8.157913000000001,0x76,,
8.160237000000000,0xEF,,
8.161944000000000,0x67,,
8.164267499999999,0xEF,,
8.165974500000001,0xD9,,
8.168298500000001,0xEF,,
8.170005500000000,0x61,,
8.172329000000000,0xEF,,
8.174036250000000,0xDC,,
8.176360000000001,0xEF,,
8.178067000000000,0x17,,
8.180390500000000,0xEF,,
8.182097499999999,0xF9,,
8.184419999999999,0x61,,
8.185346500000000,0x10,,
8.187421000000001,0x88,,
8.188351750000001,0xC0,,
8.189282499999999,0x00,,
8.190213249999999,0x00,,
8.191144000000000,0x10,,
8.207943000000000,0xC0,,
8.214390500000000,0x50,,
8.215318500000000,0x82,,
8.216246750000000,0x59,,
8.217174750000000,0x97,,
8.218102750000000,0xE3,,
8.219030999999999,0x9F,,
8.219958999999999,0x4E,,
8.220886999999999,0x0A,,
8.221814999999999,0x9E,,
8.222743250000001,0x0C,,
8.223671250000001,0x2E,,
8.224599250000001,0x75,,
8.225527250000001,0x4C,,
8.226455500000000,0x63,,
8.227383500000000,0xF9,,
8.228311500000000,0x6D,,
8.238154000000000,0x90,,
8.239080749999999,0x00,,
8.955564499999999,0x88,,
8.956495250000000,0x10,,
8.957426249999999,0x00,,
8.958356999999999,0x00,,
8.959287750000000,0x10,,
8.979032000000000,0xEF,,
8.980739000000000,0x79,,
8.983062750000000,0xEF,,
8.984769999999999,0x04,,
8.986630500000000,0xEF,,
8.988337500000000,0x20,,
8.990660750000000,0xEF,,
8.992368000000001,0x99,,
8.994691500000000,0xEF,,
8.996398500000000,0x1C,,
8.998722000000001,0xEF,,
9.000429000000000,0x86,,
9.002752500000000,0xEF,,
9.004459499999999,0x8A,,
9.006782749999999,0xEF,,
9.008490000000000,0x44,,
9.010813250000000,0xEF,,
9.012520250000000,0x46,,
9.014843750000001,0xEF,,
9.016550750000000,0xE3,,
9.018874500000001,0xEF,,
9.020581750000000,0x7B,,
9.022905500000000,0xEF,,
9.024612500000000,0xF1,,
9.026936500000000,0xEF,,
9.028643499999999,0xC5,,
9.030967250000000,0xEF,,
9.032674249999999,0xB9,,
9.034998000000000,0xEF,,
9.036705000000000,0x0E,,
9.038565500000001,0xEF,,
9.040272750000000,0x7D,,
9.042595000000000,0x61,,
9.043521500000001,0x10,,
9.045780250000000,0x88,,
9.046711000000000,0xC0,,
9.047641750000000,0x00,,
9.048572500000001,0x00,,
9.049503250000001,0x10,,
9.066302250000000,0xC0,,
9.072749750000000,0xA2,,
9.073677999999999,0x5E,,
9.074605999999999,0x1A,,
9.075533999999999,0xD3,,
9.076461999999999,0xFC,,
9.077390250000001,0x70,,
9.078318250000001,0x9C,,
9.079246250000001,0xCE,,
9.080174250000001,0xA5,,
9.081102500000000,0xC6,,
9.082030500000000,0xB5,,
9.082958500000000,0x1C,,
9.083886750000000,0x17,,
9.084814750000000,0x01,,
9.085742750000000,0x6D,,
9.086670750000000,0x45,,
9.096513249999999,0x90,,
9.097440250000000,0x00,,
10.492605250000000,0x88,,
10.493536000000001,0x10,,
10.494466750000001,0x00,,
10.495397499999999,0x00,,
10.496328249999999,0x10,,
10.516072500000000,0xEF,,
10.517779500000000,0xC6,,
10.520103250000000,0xEF,,
10.521810250000000,0x67,,
10.524134000000000,0xEF,,
10.525841000000000,0xE7,,
10.528164750000000,0xEF,,
10.529871750000000,0xAA,,
10.532195500000000,0xEF,,
10.533902500000000,0x8F,,
10.536225750000000,0xEF,,
10.537933000000001,0x0E,,
10.539793500000000,0xEF,,
10.541500500000000,0x4D,,
10.543823750000000,0xEF,,
10.545531000000000,0x3A,,
10.547854500000000,0xEF,,
10.549561499999999,0x0F,,
10.551422000000001,0xEF,,
10.553129000000000,0xE8,,
10.555453000000000,0xEF,,
10.557160000000000,0x24,,
10.559483250000000,0xEF,,
10.561190500000000,0x4F,,
10.563513750000000,0xEF,,
10.565220750000000,0xFE,,
10.567544750000000,0xEF,,
10.569252000000001,0x22,,
10.571575250000000,0xEF,,
10.573282250000000,0xC5,,
10.575606000000001,0xEF,,
10.577313000000000,0x68,,
10.579635250000001,0x61,,
10.580561749999999,0x10,,
10.582915500000000,0x88,,
10.583846250000001,0xC0,,
10.584777000000001,0x00,,
10.585708000000000,0x00,,
10.586638750000001,0x10,,
10.603437500000000,0xC0,,
10.609885000000000,0x3D,,
10.610813000000000,0x51,,
10.611741000000000,0xE4,,
10.612669250000000,0x04,,
10.613597250000000,0xE5,,
10.614525250000000,0x4A,,
10.615453250000000,0x3B,,
10.616381499999999,0x8E,,
10.617309499999999,0x7B,,
10.618237499999999,0xAA,,
10.619165750000001,0xC1,,
10.620093750000001,0xBD,,
10.621021750000001,0xC6,,
10.621949750000001,0xDD,,
10.622878000000000,0x0C,,
10.623806000000000,0x3A,,
10.633648500000000,0x90,,
10.634575249999999,0x00,,
11.980063500000000,0x88,,
11.980994250000000,0x10,,
11.981925000000000,0x00,,
11.982855750000001,0x00,,
11.983786750000000,0x10,,
12.003531250000000,0xEF,,
12.005238250000000,0xCB,,
12.007561750000001,0xEF,,
12.009268750000000,0xAE,,
12.011592500000001,0xEF,,
12.013299500000000,0x9B,,
12.015623000000000,0xEF,,
12.017330250000001,0x74,,
12.019653999999999,0xEF,,
12.021361000000001,0x29,,
12.023684500000000,0xEF,,
12.025391500000000,0xC2,,
12.027715000000001,0xEF,,
12.029422000000000,0x89,,
12.031745500000000,0xEF,,
12.033452499999999,0x56,,
12.035776250000000,0xEF,,
12.037483249999999,0x5C,,
12.039806750000000,0xEF,,
12.041513750000000,0xA9,,
12.043837500000000,0xEF,,
12.045544500000000,0x82,,
12.047867999999999,0xEF,,
12.049575000000001,0x45,,
12.051898250000001,0xEF,,
12.053605500000000,0xE8,,
12.055929250000000,0xEF,,
12.057636250000000,0x1F,,
12.059959750000001,0xEF,,
12.061666750000001,0xA8,,
12.063990250000000,0xEF,,
12.065697249999999,0x27,,
12.068019250000001,0x61,,
12.068946000000000,0x10,,
12.071235250000001,0x88,,
12.072165999999999,0xC0,,
12.073096749999999,0x00,,
12.074027500000000,0x00,,
12.074958250000000,0x10,,
12.091757250000001,0xC0,,
12.098204750000001,0x74,,
12.099132750000001,0xF4,,
12.100060750000001,0xEA,,
12.100989000000000,0xF3,,
12.101917000000000,0x7C,,
12.102845000000000,0x3D,,
12.103773250000000,0x2B,,
12.104701250000000,0xF9,,
12.105629250000000,0xCE,,
12.106557250000000,0xCB,,
12.107485499999999,0x02,,
12.108413499999999,0x4E,,
12.109341499999999,0x88,,
12.110269499999999,0x00,,
12.111197750000001,0x52,,
12.112125750000001,0x74,,
12.121968250000000,0x90,,
12.122895000000000,0x00,,
13.728292000000000,0x88,,
13.729222750000000,0x10,,
13.730153500000000,0x00,,
13.731084250000000,0x00,,
13.732015000000001,0x10,,
13.751759500000000,0xEF,,
13.753466749999999,0xEC,,
13.755790500000000,0xEF,,
13.757497499999999,0xE5,,
13.759821250000000,0xEF,,
13.761528250000000,0x1A,,
13.763851750000001,0xEF,,
13.765558750000000,0xE1,,
13.767882500000001,0xEF,,
13.769589750000000,0x45,,
13.771913000000000,0xEF,,
13.773619999999999,0xD3,,
13.775944000000001,0xEF,,
13.777651000000001,0x23,,
13.779974250000000,0xEF,,
13.781681499999999,0xB0,,
13.784005250000000,0xEF,,
13.785712250000000,0xAA,,
13.788036000000000,0xEF,,
13.789743000000000,0xBB,,
13.792066750000000,0xEF,,
13.793773750000000,0x09,,
13.795634250000001,0xEF,,
13.797341250000001,0x58,,
13.799664999999999,0xEF,,
13.801372000000001,0x13,,
13.803695500000000,0xEF,,
13.805402500000000,0xEB,,
13.807726250000000,0xEF,,
13.809433250000000,0x78,,
13.811757000000000,0xEF,,
13.813464250000001,0xB9,,
13.815786500000000,0x61,,
13.816713249999999,0x10,,
13.818835750000000,0x88,,
13.819766500000000,0xC0,,
13.820697250000000,0x00,,
13.821628000000000,0x00,,
13.822559000000000,0x10,,
13.839357500000000,0xC0,,
13.845805250000000,0x79,,
13.846733250000000,0x6C,,
13.847661250000000,0x46,,
13.848589250000000,0xCC,,
13.849517499999999,0x84,,
13.850445499999999,0x4E,,
13.851373499999999,0x35,,
13.852301750000001,0xFD,,
13.853229750000001,0x16,,
13.854157750000001,0x2E,,
13.855085750000001,0xAE,,
13.856014000000000,0xFD,,
13.856942000000000,0x41,,
13.857870000000000,0x79,,
13.858798000000000,0xC8,,
13.859726250000000,0x82,,
13.869568749999999,0x90,,
13.870495500000001,0x00,,
15.575722250000000,0x88,,
15.576653250000000,0x10,,
15.577584000000000,0x00,,
15.578514750000000,0x00,,
15.579445500000000,0x10,,
15.599189750000001,0xEF,,
15.600896750000000,0xCC,,
15.603220500000001,0xEF,,
15.604927500000001,0xFB,,
15.607251500000000,0xEF,,
15.608958500000000,0x8A,,
15.611281999999999,0xEF,,
15.612989000000001,0x66,,
15.615312500000000,0xEF,,
15.617019500000000,0x90,,
15.619343250000000,0xEF,,
15.621050250000000,0x78,,
15.623374000000000,0xEF,,
15.625081249999999,0x8A,,
15.627404500000001,0xEF,,
15.629111500000000,0xE1,,
15.631435500000000,0xEF,,
15.633142500000000,0x3C,,
15.635465999999999,0xEF,,
15.637173000000001,0xB1,,
15.639497000000000,0xEF,,
15.641204000000000,0x9C,,
15.643527499999999,0xEF,,
15.645234500000001,0x40,,
15.647558000000000,0xEF,,
15.649265000000000,0x94,,
15.651588750000000,0xEF,,
15.653295750000000,0xAA,,
15.655619250000001,0xEF,,
15.657326250000001,0x5A,,
15.659649999999999,0xEF,,
15.661357000000001,0x1A,,
15.663679000000000,0x61,,
15.664605500000000,0x10,,
15.666643750000000,0x88,,
15.667574500000001,0xC0,,
15.668505250000001,0x00,,
15.669435999999999,0x00,,
15.670366749999999,0x10,,
15.687165750000000,0xC0,,
15.693613250000000,0xC8,,
15.694541250000000,0x0C,,
15.695469500000000,0x97,,
15.696397500000000,0x43,,
15.697325500000000,0xDC,,
15.698253500000000,0x52,,
15.699181749999999,0x15,,
15.700109749999999,0x2D,,
15.701037749999999,0x43,,
15.701966000000001,0x8A,,
15.702894000000001,0x18,,
15.703822000000001,0xEC,,
15.704750000000001,0x99,,
15.705678250000000,0xA1,,
15.706606250000000,0x58,,
15.707534250000000,0x8E,,
15.717376750000000,0x90,,
15.718303499999999,0x00,,
17.274446999999999,0x88,,
17.275377750000001,0x10,,
17.276308499999999,0x00,,
17.277239250000001,0x00,,
17.278169999999999,0x10,,
17.297914500000001,0xEF,,
17.299621500000001,0x73,,
17.301945499999999,0xEF,,
17.303652499999998,0xA3,,
17.305976000000001,0xEF,,
17.307683000000001,0xBE,,
17.310006999999999,0xEF,,
17.311713999999998,0xB0,,
17.314037750000001,0xEF,,
17.315744750000000,0x90,,
17.318068499999999,0xEF,,
17.319775499999999,0xBA,,
17.322099250000001,0xEF,,
17.323806250000001,0x9B,,
17.326129999999999,0xEF,,
17.327836999999999,0xEB,,
17.330160750000001,0xEF,,
17.331867750000001,0x7D,,
17.334191749999999,0xEF,,
17.335898749999998,0x07,,
17.337759250000001,0xEF,,
17.339466250000001,0x42,,
17.341789750000000,0xEF,,
17.343496750000000,0x29,,
17.345820000000000,0xEF,,
17.347527249999999,0xC2,,
17.349850750000002,0xEF,,
17.351557750000001,0x75,,
17.353881749999999,0xEF,,
17.355588749999999,0x4A,,
17.357911999999999,0xEF,,
17.359618999999999,0xD6,,
17.361941500000000,0x61,,
17.362867999999999,0x10,,
17.365074750000002,0x88,,
17.366005749999999,0xC0,,
17.366936500000001,0x00,,
17.367867250000000,0x00,,
17.368798000000002,0x10,,
17.385597000000001,0xC0,,
17.392044500000001,0x5B,,
17.392972499999999,0x82,,
17.393900500000001,0x23,,
17.394828749999999,0x56,,
17.395756750000000,0x56,,
17.396684749999999,0x3B,,
17.397612750000000,0xA2,,
17.398541000000002,0x08,,
17.399469000000000,0x53,,
17.400397000000002,0x0A,,
17.401325249999999,0x9E,,
17.402253250000001,0xD5,,
17.403181249999999,0x5B,,
17.404109250000001,0xB0,,
17.405037499999999,0x25,,
17.405965500000001,0xFB,,
17.415807999999998,0x90,,
17.416734750000000,0x00,,
19.322564000000000,0x88,,
19.323494749999998,0x10,,
19.324425750000000,0x00,,
19.325356500000002,0x00,,
19.326287250000000,0x10,,
19.346031750000002,0xEF,,
19.347738750000001,0x8D,,
19.350062250000001,0xEF,,
19.351769250000000,0xF5,,
19.354093249999998,0xEF,,
19.355800250000001,0xCB,,
19.358123750000001,0xEF,,
19.359831000000000,0x33,,
19.362154499999999,0xEF,,
19.363861499999999,0x3E,,
19.366185250000001,0xEF,,
19.367892250000001,0xD2,,
19.370215999999999,0xEF,,
19.371922999999999,0x90,,
19.374246750000001,0xEF,,
19.375953750000001,0xF3,,
19.378277749999999,0xEF,,
19.379984749999998,0x76,,
19.382308500000001,0xEF,,
19.384015750000000,0x8C,,
19.386339000000000,0xEF,,
19.388045999999999,0x14,,
19.390369499999998,0xEF,,
19.392076500000002,0x23,,
19.394400000000001,0xEF,,
19.396107000000001,0xD2,,
19.398430749999999,0xEF,,
19.400137749999999,0xD7,,
19.402461750000001,0xEF,,
19.404168750000000,0x51,,
19.406492249999999,0xEF,,
19.408199249999999,0x1B,,
19.410521249999999,0x61,,
19.411448000000000,0x10,,
19.413710500000001,0x88,,
19.414641249999999,0xC0,,
19.415572000000001,0x00,,
19.416502749999999,0x00,,
19.417433500000001,0x10,,
19.434232250000001,0xC0,,
19.440680000000000,0x9C,,
19.441607999999999,0x63,,
19.442536000000000,0x59,,
19.443463999999999,0x92,,
19.444392250000000,0x48,,
19.445320250000002,0x0F,,
19.446248250000000,0x34,,
19.447176249999998,0x27,,
19.448104499999999,0x55,,
19.449032500000001,0x2E,,
19.449960500000000,0x3B,,
19.450888750000001,0xC2,,
19.451816749999999,0x7C,,
19.452744750000001,0x77,,
19.453672749999999,0x48,,
19.454601000000000,0xEB,,
19.464443500000002,0x90,,
19.465370249999999,0x00,,
20.820921999999999,0x88,,
20.821852750000001,0x10,,
20.822783500000000,0x00,,
20.823714500000001,0x00,,
20.824645250000000,0x10,,
20.844389750000001,0xEF,,
20.846096750000001,0x18,,
20.848420250000000,0xEF,,
20.850127250000000,0x72,,
20.852450999999999,0xEF,,
20.854158000000002,0x54,,
20.856481750000000,0xEF,,
20.858188750000000,0x16,,
20.860512000000000,0xEF,,
20.862219249999999,0x02,,
20.864079749999998,0xEF,,
20.865786750000002,0xDD,,
20.868110500000000,0xEF,,
20.869817500000000,0x94,,
20.872141249999999,0xEF,,
20.873848250000002,0xD2,,
20.876172000000000,0xEF,,
20.877879000000000,0x90,,
20.880202749999999,0xEF,,
20.881909749999998,0xD1,,
20.884233500000001,0xEF,,
20.885940500000000,0x95,,
20.888264249999999,0xEF,,
20.889971249999999,0xB6,,
20.892295000000001,0xEF,,
20.894002000000000,0x13,,
20.896325500000000,0xEF,,
20.898032499999999,0x49,,
20.900355999999999,0xEF,,
20.902062999999998,0x84,,
20.904386500000001,0xEF,,
20.906093500000001,0xFA,,
20.908415999999999,0x61,,
20.909342500000001,0x10,,
20.911466000000001,0x88,,
20.912396749999999,0xC0,,
20.913327500000001,0x00,,
20.914258250000000,0x00,,
20.915189000000002,0x10,,
20.931987750000001,0xC0,,
20.938435250000001,0x60,,
20.939363250000000,0xC8,,
20.940291500000001,0x53,,
20.941219499999999,0x97,,
20.942147500000001,0xAE,,
20.943075499999999,0x3F,,
20.944003750000000,0xCA,,
20.944931749999999,0x00,,
20.945859750000000,0x05,,
20.946787749999999,0x0C,,
20.947716000000000,0x5F,,
20.948644000000002,0x1D,,
20.949572000000000,0x63,,
20.950500250000001,0x45,,
20.951428249999999,0xBE,,
20.952356250000001,0x39,,
20.962198749999999,0x90,,
20.963125500000000,0x00,,
22.306613750000000,0x88,,
22.307544750000002,0x10,,
22.308475500000000,0x00,,
22.309406249999999,0x00,,
22.310337000000001,0x10,,
22.330081249999999,0xEF,,
22.331788249999999,0x6F,,
22.334112000000001,0xEF,,
22.335819000000001,0xE0,,
22.338142749999999,0xEF,,
22.339849749999999,0xD6,,
22.342173750000001,0xEF,,
22.343880750000000,0x6F,,
22.346204250000000,0xEF,,
22.347911249999999,0x16,,
22.350234749999998,0xEF,,
22.351941750000002,0x4B,,
22.354265250000001,0xEF,,
22.355972250000001,0x5A,,
22.358295750000000,0xEF,,
22.360002999999999,0xE6,,
22.362326750000001,0xEF,,
22.364033750000001,0x22,,
22.366357250000000,0xEF,,
22.368064250000000,0x11,,
22.370387500000000,0xEF,,
22.372094749999999,0x34,,
22.374418250000002,0xEF,,
22.376125250000001,0x53,,
22.378449000000000,0xEF,,
22.380155999999999,0x5D,,
22.382479499999999,0xEF,,
22.384186499999998,0xFE,,
22.386510749999999,0xEF,,
22.388217749999999,0x54,,
22.390541249999998,0xEF,,
22.392248250000002,0xEA,,
22.394570750000000,0x61,,
22.395497249999998,0x10,,
22.397665249999999,0x88,,
22.398596000000001,0xC0,,
22.399526750000000,0x00,,
22.400457500000002,0x00,,
22.401388250000000,0x10,,
22.418186750000000,0xC0,,
22.424634250000000,0xDF,,
22.425562500000002,0x2B,,
22.426490500000000,0x2F,,
22.427418500000002,0x66,,
22.428346500000000,0x15,,
22.429274750000001,0x7C,,
22.430202749999999,0x25,,
22.431130750000001,0x0B,,
22.432058749999999,0x68,,
22.432987000000001,0xA5,,
22.433914999999999,0xDC,,
22.434843000000001,0x79,,
22.435771249999998,0xC8,,
22.436699250000000,0xBA,,
22.437627249999998,0xC2,,
22.438555250000000,0xCA,,
22.448397750000002,0x90,,
22.449324749999999,0x00,,
23.430486999999999,0x88,,
23.431417750000001,0x10,,
23.432348749999999,0x00,,
23.433279500000001,0x00,,
23.434210250000000,0x10,,
23.453954499999998,0xEF,,
23.455661500000001,0xD5,,
23.457985250000000,0xEF,,
23.459692499999999,0x60,,
23.462015999999998,0xEF,,
23.463723000000002,0xB9,,
23.466046750000000,0xEF,,
